
T1CB4 000:460 SEGGER J-Link V4.80g Log File (0001ms, 0276ms total)
T1CB4 000:460 DLL Compiled: Feb 13 2014 20:50:02 (0001ms, 0276ms total)
T1CB4 000:460 Logging started @ 2020-11-26 09:12 (0002ms, 0277ms total)
T1CB4 000:462 JLINK_SetWarnOutHandler(...) (0000ms, 0277ms total)
T1CB4 000:462 JLINK_OpenEx(...)
Firmware: J-Link ARM-OB STM32 compiled Aug 22 2012 19:52:04
Hardware: V7.00
Feature(s): RDI,FlashDL,FlashBP,JFlash,GDBFull  returns O.K. (0275ms, 0552ms total)
T1CB4 000:737 JLINK_SetErrorOutHandler(...) (0000ms, 0552ms total)
T1CB4 000:737 JLINK_ExecCommand("ProjectFile = "C:\Users\Ihor Yasnyy\Desktop\Ultrasonidos\JLinkSettings.ini"", ...)  returns 0x00 (0002ms, 0554ms total)
T1CB4 000:739 JLINK_ExecCommand("Device = LPC1768", ...)Device "LPC1768" selected (512 KB flash, 32 KB RAM).  returns 0x00 (0007ms, 0561ms total)
T1CB4 000:746 JLINK_ExecCommand("DisableConnectionTimeout", ...)  returns 0x01 (0000ms, 0561ms total)
T1CB4 000:746 JLINK_GetHardwareVersion()  returns 0x11170 (0000ms, 0561ms total)
T1CB4 000:746 JLINK_GetDLLVersion()  returns 48007 (0000ms, 0561ms total)
T1CB4 000:746 JLINK_GetFirmwareString(...) (0000ms, 0561ms total)
T1CB4 000:750 JLINK_GetDLLVersion()  returns 48007 (0000ms, 0561ms total)
T1CB4 000:750 JLINK_GetCompileDateTime() (0000ms, 0561ms total)
T1CB4 000:751 JLINK_GetFirmwareString(...) (0000ms, 0561ms total)
T1CB4 000:752 JLINK_GetHardwareVersion()  returns 0x11170 (0000ms, 0561ms total)
T1CB4 000:754 JLINK_TIF_Select(JLINKARM_TIF_SWD)  returns 0x00 (0002ms, 0563ms total)
T1CB4 000:756 JLINK_SetSpeed(10000) (0001ms, 0564ms total)
T1CB4 000:757 JLINK_GetId() >0x108 TIF>Found SWD-DP with ID 0x2BA01477 >0x0D TIF> >0x21 TIF> >0x0D TIF> >0x28 TIF> >0x0D TIF> >0x28 TIF> >0x0D TIF> >0x21 TIF> >0x0D TIF> >0x28 TIF> >0x0D TIF> >0x21 TIF> >0x0D TIF> >0x21 TIF> >0x0D TIF> >0x21 TIF> >0x0D TIF> >0x21 TIF> >0x0D TIF> >0x28 TIF> >0x0D TIF> >0x28 TIF> >0x0D TIF> >0x21 TIF> >0x0D TIF> >0x28 TIF> >0x0D TIF> >0x28 TIF> >0x0D TIF> >0x28 TIF> >0x0D TIF> >0x21 TIF> >0x0D TIF> >0x21 TIF> >0x0D TIF> >0x28 TIF> >0x0D TIF> >0x21 TIF> >0x0D TIF>
 >0x21 TIF>Found Cortex-M3 r2p0, Little endian. -- CPU_WriteMem(4 bytes @ 0xE0002000) -- CPU_ReadMem(4 bytes @ 0xE000EDF0) -- CPU_ReadMem(4 bytes @ 0xE0002000)FPUnit: 6 code (BP) slots and 2 literal slots -- CPU_ReadMem(4 bytes @ 0xE000EDFC) -- CPU_ReadMem(4 bytes @ 0xE0001000) -- CPU_WriteMem(4 bytes @ 0xE0001000) -- CPU_ReadMem(4 bytes @ 0xE00FF010)TPIU fitted. -- CPU_ReadMem(4 bytes @ 0xE00FF014)ETM fitted. -- CPU_ReadMem(4 bytes @ 0xE00FF018) >0x0D TIF> >0x21 TIF>  returns 0x2BA01477
 (0035ms, 0599ms total)
T1CB4 000:792 JLINK_GetDeviceFamily()  returns 3 (0000ms, 0599ms total)
T1CB4 000:792 JLINK_ReadMem (0xE00FFFF0, 0x0010 Bytes, ...) -- CPU is running -- CPU_ReadMem(16 bytes @ 0xE00FFFF0) -- Data:  0D 00 00 00 10 00 00 00 05 00 00 00 B1 00 00 00  returns 0x00 (0001ms, 0600ms total)
T1CB4 000:793 JLINK_ReadMem (0xE00FFFD0, 0x0020 Bytes, ...) -- CPU is running -- CPU_ReadMem(32 bytes @ 0xE00FFFD0) -- Data:  00 00 00 00 00 00 00 00 00 00 00 00 00 00 00 00 ...  returns 0x00 (0002ms, 0602ms total)
T1CB4 000:795 JLINK_ReadMem (0xE00FF000, 0x0018 Bytes, ...) -- CPU is running -- CPU_ReadMem(24 bytes @ 0xE00FF000) -- Data:  03 F0 F0 FF 03 20 F0 FF 03 30 F0 FF 03 10 F0 FF ...  returns 0x00 (0001ms, 0603ms total)
T1CB4 000:796 JLINK_ReadMemU32(0xE000ED00, 0x0001 Items, ...) -- CPU is running -- CPU_ReadMem(4 bytes @ 0xE000ED00) -- Data:  30 C2 2F 41  returns 0x01 (0001ms, 0604ms total)
T1CB4 000:797 JLINK_SetResetType(JLINKARM_RESET_TYPE_NORMAL)  returns ??? (0000ms, 0604ms total)
T1CB4 000:797 JLINK_Reset() -- CPU is running -- CPU_WriteMem(4 bytes @ 0xE000EDF0) -- CPU is running -- CPU_WriteMem(4 bytes @ 0xE000EDFC) >0x35 TIF> -- CPU is running -- CPU_WriteMem(4 bytes @ 0xE000ED0C) -- CPU is running -- CPU_ReadMem(4 bytes @ 0xE000EDF0) -- CPU is running -- CPU_ReadMem(4 bytes @ 0xE000EDF0) -- CPU is running -- CPU_WriteMem(4 bytes @ 0xE000EDF0) -- CPU is running -- CPU_WriteMem(4 bytes @ 0xE000EDFC) -- CPU is running -- CPU_ReadMem(4 bytes @ 0xE000EDF0)
 -- CPU_WriteMem(4 bytes @ 0xE000EDFC) -- CPU_WriteMem(4 bytes @ 0xE000EDFC) -- CPU_WriteMem(4 bytes @ 0xE000EDFC) -- CPU_WriteMem(4 bytes @ 0xE000EDFC) -- CPU_WriteMem(4 bytes @ 0xE000EDFC) -- CPU_WriteMem(4 bytes @ 0xE0001050) -- CPU_WriteMem(4 bytes @ 0xE0001054) -- CPU_WriteMem(4 bytes @ 0xE0001058) -- CPU_WriteMem(4 bytes @ 0xE000EDFC) -- CPU_WriteMem(4 bytes @ 0xE0001058) -- CPU_ReadMem(4 bytes @ 0x00000004) -- CPU_ReadMem(4 bytes @ 0xE0002000) -- CPU_ReadMem(4 bytes @ 0xE0002008)
 -- CPU_ReadMem(4 bytes @ 0xE000200C) -- CPU_ReadMem(4 bytes @ 0xE0002010) -- CPU_ReadMem(4 bytes @ 0xE0002014) -- CPU_ReadMem(4 bytes @ 0xE0002018) -- CPU_ReadMem(4 bytes @ 0xE000201C) -- CPU_WriteMem(4 bytes @ 0xE0002000) -- CPU_WriteMem(4 bytes @ 0xE0002008) -- CPU_WriteMem(4 bytes @ 0xE000200C) -- CPU_WriteMem(4 bytes @ 0xE0002010) -- CPU_WriteMem(4 bytes @ 0xE0002014) -- CPU_WriteMem(4 bytes @ 0xE0002018) -- CPU_WriteMem(4 bytes @ 0xE000201C) -- CPU_ReadMem(4 bytes @ 0x400FC040)
 -- CPU_WriteMem(4 bytes @ 0xE0002000) -- CPU_WriteMem(4 bytes @ 0xE0002008) -- CPU_WriteMem(4 bytes @ 0xE000200C) -- CPU_WriteMem(4 bytes @ 0xE0002010) -- CPU_WriteMem(4 bytes @ 0xE0002014) -- CPU_WriteMem(4 bytes @ 0xE0002018) -- CPU_WriteMem(4 bytes @ 0xE000201C) -- CPU_WriteMem(4 bytes @ 0xE0002000) -- CPU_ReadMem(4 bytes @ 0xE000EDFC) -- CPU_ReadMem(4 bytes @ 0xE0001000) (0274ms, 0878ms total)
T1CB4 001:071 JLINK_ReadReg(R15 (PC))  returns 0x00000168 (0001ms, 0879ms total)
T1CB4 001:072 JLINK_ReadReg(XPSR)  returns 0x61000000 (0000ms, 0879ms total)
T1CB4 001:072 JLINK_Halt()  returns 0x00 (0000ms, 0879ms total)
T1CB4 001:072 JLINK_IsHalted()  returns TRUE (0000ms, 0879ms total)
T1CB4 001:072 JLINK_ReadMemU32(0xE000EDF0, 0x0001 Items, ...) -- CPU_ReadMem(4 bytes @ 0xE000EDF0) -- Data:  03 00 03 00  returns 0x01 (0002ms, 0881ms total)
T1CB4 001:074 JLINK_WriteU32(0xE000EDF0, 0xA05F0003) -- CPU_WriteMem(4 bytes @ 0xE000EDF0)  returns 0x00 (0000ms, 0881ms total)
T1CB4 001:074 JLINK_WriteU32(0xE000EDFC, 0x01000000) -- CPU_WriteMem(4 bytes @ 0xE000EDFC)  returns 0x00 (0002ms, 0883ms total)
T1CB4 001:078 JLINK_GetHWStatus(...)  returns 0x00 (0001ms, 0884ms total)
T1CB4 001:080 JLINK_GetNumBPUnits(Type = 0xFFFFFF00)  returns 0x06 (0000ms, 0884ms total)
T1CB4 001:080 JLINK_GetNumBPUnits(Type = 0xF0)  returns 0x2000 (0000ms, 0884ms total)
T1CB4 001:080 JLINK_GetNumWPUnits()  returns 0x04 (0001ms, 0885ms total)
T1CB4 001:082 JLINK_GetSpeed()  returns 0xFA0 (0000ms, 0885ms total)
T1CB4 001:083 JLINK_ReadMemU32(0xE000E004, 0x0001 Items, ...) -- CPU_ReadMem(4 bytes @ 0xE000E004) -- Data:  01 00 00 00  returns 0x01 (0001ms, 0886ms total)
T1CB4 001:084 JLINK_ReadMemU32(0xE000E004, 0x0001 Items, ...) -- CPU_ReadMem(4 bytes @ 0xE000E004) -- Data:  01 00 00 00  returns 0x01 (0001ms, 0887ms total)
T1CB4 001:085 JLINK_WriteMem(0xE0001000, 0x001C Bytes, ...) -- Data:  01 00 00 00 00 00 00 00 00 00 00 00 00 00 00 00 ... -- CPU_WriteMem(28 bytes @ 0xE0001000)  returns 0x1C (0002ms, 0889ms total)
T1CB4 001:087 JLINK_ReadMem (0xE0001000, 0x001C Bytes, ...) -- CPU_ReadMem(28 bytes @ 0xE0001000) -- Data:  01 00 00 40 00 00 00 00 00 00 00 00 00 00 00 00 ...  returns 0x00 (0001ms, 0890ms total)
T1CB4 001:088 JLINK_ReadReg(R15 (PC))  returns 0x00000168 (0000ms, 0890ms total)
T1CB4 001:088 JLINK_ReadReg(XPSR)  returns 0x61000000 (0000ms, 0890ms total)
T1CB4 001:088 JLINK_WriteU32(0xE0041FB0, 0xC5ACCE55) -- CPU_WriteMem(4 bytes @ 0xE0041FB0)  returns 0x00 (0001ms, 0891ms total)
T1CB4 001:089 JLINK_ReadMemU32(0xE0041000, 0x0001 Items, ...) -- CPU_ReadMem(4 bytes @ 0xE0041000) -- Data:  01 00 00 00  returns 0x01 (0001ms, 0892ms total)
T1CB4 001:090 JLINK_WriteU32(0xE0041000, 0x00000000) -- CPU_WriteMem(4 bytes @ 0xE0041000)  returns 0x00 (0001ms, 0893ms total)
T1CB4 001:096 JLINK_SWO_Control(JLINKARM_SWO_CMD_GET_SPEED_INFO, ...)  returns 0x00 (0002ms, 0895ms total)
T1CB4 001:098 JLINK_SWO_Control(JLINKARM_SWO_CMD_STOP, ...)  returns 0x00 (0000ms, 0895ms total)
T1CB4 001:098 JLINK_SWO_Control(JLINKARM_SWO_CMD_START, ...) -- UART -- 1111111bps  returns 0x00 (0003ms, 0898ms total)
T1CB4 001:101 JLINK_WriteU32(0xE0040004, 0x00000001) -- CPU_WriteMem(4 bytes @ 0xE0040004)  returns 0x00 (0001ms, 0899ms total)
T1CB4 001:103 JLINK_WriteU32(0xE0040010, 0x00000008)  returns 0x00 (0000ms, 0899ms total)
T1CB4 001:103 JLINK_WriteU32(0xE00400F0, 0x00000002)  returns 0x00 (0000ms, 0899ms total)
T1CB4 001:103 JLINK_WriteU32(0xE0040304, 0x00000000)  returns 0x00 (0000ms, 0899ms total)
T1CB4 001:103 JLINK_WriteU32(0xE0000FB0, 0xC5ACCE55) -- CPU_WriteMem(4 bytes @ 0xE0000FB0)  returns 0x00 (0001ms, 0900ms total)
T1CB4 001:104 JLINK_WriteU32(0xE0000E80, 0x0001000D)  returns 0x00 (0000ms, 0900ms total)
T1CB4 001:104 JLINK_WriteU32(0xE0000E00, 0xFFFFFFFF)  returns 0x00 (0000ms, 0900ms total)
T1CB4 001:104 JLINK_WriteU32(0xE0000E40, 0x00000008)  returns 0x00 (0000ms, 0900ms total)
T1CB4 001:104 JLINK_WriteU32(0xE0001000, 0x0001161F)  returns 0x00 (0000ms, 0900ms total)
T1CB4 001:153 JLINK_WriteU8(0x400FC040, 0x01) -- CPU_WriteMem(1 bytes @ 0x400FC040)  returns 0x00 (0001ms, 0901ms total)
T1CB4 001:164 JLINK_ReadMem (0x00000000, 0x1000 Bytes, ...) -- CPU_ReadMem(4 bytes @ 0x400FC040) -- CPU_ReadMem(4096 bytes @ 0x00000000) -- Updating C cache (4096 bytes @ 0x00000000) -- Read from C cache (4096 bytes @ 0x00000000) -- Data:  D0 7F 00 10 69 01 00 00 71 01 00 00 73 01 00 00 ...  returns 0x00 (0044ms, 0945ms total)
T1CB4 001:210 JLINK_ReadMem (0x00001000, 0x1000 Bytes, ...) -- CPU_ReadMem(4096 bytes @ 0x00001000) -- Updating C cache (4096 bytes @ 0x00001000) -- Read from C cache (4096 bytes @ 0x00001000) -- Data:  29 E0 7A 48 00 88 00 F0 63 FF 80 46 7D 4A 7E 4B ...  returns 0x00 (0043ms, 0988ms total)
T1CB4 001:256 JLINK_ReadMem (0x00002000, 0x1000 Bytes, ...) -- CPU_ReadMem(4096 bytes @ 0x00002000) -- Updating C cache (4096 bytes @ 0x00002000) -- Read from C cache (4096 bytes @ 0x00002000) -- Data:  06 D0 4F F0 00 00 81 EA 03 0E 0E F0 00 41 70 BD ...  returns 0x00 (0045ms, 1033ms total)
T1CB4 001:304 JLINK_ReadMem (0x00003000, 0x1000 Bytes, ...) -- CPU_ReadMem(4096 bytes @ 0x00003000) -- Updating C cache (4096 bytes @ 0x00003000) -- Read from C cache (4096 bytes @ 0x00003000) -- Data:  88 88 89 88 87 89 88 88 88 88 89 87 89 8C 89 89 ...  returns 0x00 (0043ms, 1076ms total)
T1CB4 001:350 JLINK_ReadMem (0x00004000, 0x1000 Bytes, ...) -- CPU_ReadMem(4096 bytes @ 0x00004000) -- Updating C cache (4096 bytes @ 0x00004000) -- Read from C cache (4096 bytes @ 0x00004000) -- Data:  74 71 6E 6E 71 77 79 78 76 76 7A 7E 80 7D 7A 77 ...  returns 0x00 (0045ms, 1121ms total)
T1CB4 001:399 JLINK_ReadMem (0x00005000, 0x1000 Bytes, ...) -- CPU_ReadMem(4096 bytes @ 0x00005000) -- Updating C cache (4096 bytes @ 0x00005000) -- Read from C cache (4096 bytes @ 0x00005000) -- Data:  86 87 87 87 87 87 87 86 86 87 87 86 87 86 86 87 ...  returns 0x00 (0043ms, 1164ms total)
T1CB4 001:446 JLINK_ReadMem (0x00006000, 0x09C8 Bytes, ...) -- CPU_ReadMem(2560 bytes @ 0x00006000) -- Updating C cache (2560 bytes @ 0x00006000) -- Read from C cache (2504 bytes @ 0x00006000) -- Data:  8B 8A 8A 8B 8A 8B 8A 8A 8B 8B 8B 8B 8B 8A 8B 8A ...  returns 0x00 (0028ms, 1192ms total)
T1CB4 001:537 JLINK_SetResetType(JLINKARM_RESET_TYPE_NORMAL)  returns ??? (0000ms, 1192ms total)
T1CB4 001:537 JLINK_Reset() -- CPU_WriteMem(4 bytes @ 0xE0000E00) -- CPU_WriteMem(4 bytes @ 0xE0000E40) -- CPU_WriteMem(4 bytes @ 0xE0000E80) -- CPU_WriteMem(4 bytes @ 0xE0001000) -- CPU_WriteMem(4 bytes @ 0xE0040010) -- CPU_WriteMem(4 bytes @ 0xE00400F0) -- CPU_WriteMem(4 bytes @ 0xE0040304) -- CPU_WriteMem(4 bytes @ 0xE000EDF0) -- CPU_WriteMem(4 bytes @ 0xE000EDFC) >0x35 TIF> -- CPU_WriteMem(4 bytes @ 0xE000ED0C) -- CPU_ReadMem(4 bytes @ 0xE000EDF0) -- CPU_ReadMem(4 bytes @ 0xE000EDF0)
 -- CPU_WriteMem(4 bytes @ 0xE000EDF0) -- CPU_WriteMem(4 bytes @ 0xE000EDFC) -- CPU is running -- CPU_ReadMem(4 bytes @ 0xE000EDF0) -- CPU_WriteMem(4 bytes @ 0xE000EDFC) -- CPU_WriteMem(4 bytes @ 0xE000EDFC) -- CPU_WriteMem(4 bytes @ 0xE000EDFC) -- CPU_WriteMem(4 bytes @ 0xE000EDFC) -- CPU_WriteMem(4 bytes @ 0xE000EDFC) -- CPU_WriteMem(4 bytes @ 0xE0001050) -- CPU_WriteMem(4 bytes @ 0xE0001054) -- CPU_WriteMem(4 bytes @ 0xE0001058) -- CPU_WriteMem(4 bytes @ 0xE000EDFC)
 -- CPU_WriteMem(4 bytes @ 0xE0001058) -- CPU_ReadMem(4 bytes @ 0x00000004) -- CPU_ReadMem(4 bytes @ 0xE0002000) -- CPU_ReadMem(4 bytes @ 0xE0002008) -- CPU_ReadMem(4 bytes @ 0xE000200C) -- CPU_ReadMem(4 bytes @ 0xE0002010) -- CPU_ReadMem(4 bytes @ 0xE0002014) -- CPU_ReadMem(4 bytes @ 0xE0002018) -- CPU_ReadMem(4 bytes @ 0xE000201C) -- CPU_WriteMem(4 bytes @ 0xE0002000) -- CPU_WriteMem(4 bytes @ 0xE0002008) -- CPU_WriteMem(4 bytes @ 0xE000200C) -- CPU_WriteMem(4 bytes @ 0xE0002010)
 -- CPU_WriteMem(4 bytes @ 0xE0002014) -- CPU_WriteMem(4 bytes @ 0xE0002018) -- CPU_WriteMem(4 bytes @ 0xE000201C) -- CPU_ReadMem(4 bytes @ 0x400FC040) -- CPU_WriteMem(4 bytes @ 0xE0002000) -- CPU_WriteMem(4 bytes @ 0xE0002008) -- CPU_WriteMem(4 bytes @ 0xE000200C) -- CPU_WriteMem(4 bytes @ 0xE0002010) -- CPU_WriteMem(4 bytes @ 0xE0002014) -- CPU_WriteMem(4 bytes @ 0xE0002018) -- CPU_WriteMem(4 bytes @ 0xE000201C) -- CPU_WriteMem(4 bytes @ 0xE0002000) -- CPU_ReadMem(4 bytes @ 0xE000EDFC)
 -- CPU_ReadMem(4 bytes @ 0xE0001000) (0287ms, 1479ms total)
T1CB4 001:826 JLINK_WriteU32(0xE000EDFC, 0x01000000) -- CPU_WriteMem(4 bytes @ 0xE000EDFC)  returns 0x00 (0002ms, 1481ms total)
T1CB4 001:828 JLINK_ReadReg(R15 (PC))  returns 0x00000168 (0000ms, 1481ms total)
T1CB4 001:828 JLINK_ReadReg(XPSR)  returns 0x61000000 (0000ms, 1481ms total)
T1CB4 001:877 JLINK_ReadMem (0x00000168, 0x003C Bytes, ...) -- CPU_ReadMem(4 bytes @ 0x400FC040) -- CPU_ReadMem(128 bytes @ 0x00000140) -- Updating C cache (128 bytes @ 0x00000140) -- Read from C cache (60 bytes @ 0x00000168) -- Data:  09 48 80 47 09 48 00 47 FE E7 FE E7 FE E7 FE E7 ...  returns 0x00 (0003ms, 1484ms total)
T1CB4 001:968 JLINK_WriteU32(0xE0001008, 0x00000000)  returns 0x00 (0000ms, 1484ms total)
T1CB4 001:968 JLINK_WriteU32(0xE000100C, 0x00000000)  returns 0x00 (0000ms, 1484ms total)
T1CB4 001:968 JLINK_WriteU32(0xE0001010, 0x00000000)  returns 0x00 (0000ms, 1484ms total)
T1CB4 001:968 JLINK_WriteU32(0xE0001014, 0x00000000)  returns 0x00 (0000ms, 1484ms total)
T1CB4 001:968 JLINK_WriteU32(0xE0001018, 0x00000000)  returns 0x00 (0000ms, 1484ms total)
T1CB4 002:006 JLINK_ReadMem (0xE000ED04, 0x0004 Bytes, ...) -- CPU_ReadMem(4 bytes @ 0xE000ED04) -- Data:  00 00 00 00  returns 0x00 (0001ms, 1485ms total)
T1CB4 002:007 JLINK_ReadMem (0xE000ED08, 0x0004 Bytes, ...) -- CPU_ReadMem(4 bytes @ 0xE000ED08) -- Data:  00 00 00 00  returns 0x00 (0001ms, 1486ms total)
T1CB4 002:008 JLINK_ReadMem (0xE000ED0C, 0x0004 Bytes, ...) -- CPU_ReadMem(4 bytes @ 0xE000ED0C) -- Data:  00 00 05 FA  returns 0x00 (0001ms, 1487ms total)
T1CB4 002:010 JLINK_ReadMem (0xE000ED18, 0x0004 Bytes, ...) -- CPU_ReadMem(4 bytes @ 0xE000ED18) -- Data:  00 00 00 00  returns 0x00 (0001ms, 1488ms total)
T1CB4 002:011 JLINK_ReadMem (0xE000ED1C, 0x0004 Bytes, ...) -- CPU_ReadMem(4 bytes @ 0xE000ED1C) -- Data:  00 00 00 00  returns 0x00 (0000ms, 1488ms total)
T1CB4 002:011 JLINK_ReadMem (0xE000ED20, 0x0004 Bytes, ...) -- CPU_ReadMem(4 bytes @ 0xE000ED20) -- Data:  00 00 00 00  returns 0x00 (0001ms, 1489ms total)
T1CB4 002:012 JLINK_ReadMem (0xE000ED24, 0x0004 Bytes, ...) -- CPU_ReadMem(4 bytes @ 0xE000ED24) -- Data:  00 00 00 00  returns 0x00 (0001ms, 1490ms total)
T1CB4 002:013 JLINK_ReadMem (0xE000EDFC, 0x0004 Bytes, ...) -- Data:  00 00 00 01  returns 0x00 (0000ms, 1490ms total)
T1CB4 002:013 JLINK_ReadMem (0xE000E100, 0x0008 Bytes, ...) -- CPU_ReadMem(8 bytes @ 0xE000E100) -- Data:  00 00 00 00 00 00 00 00  returns 0x00 (0001ms, 1491ms total)
T1CB4 002:014 JLINK_ReadMem (0xE000E200, 0x0008 Bytes, ...) -- CPU_ReadMem(8 bytes @ 0xE000E200) -- Data:  00 00 00 00 00 00 00 00  returns 0x00 (0001ms, 1492ms total)
T1CB4 002:015 JLINK_ReadMem (0xE000E300, 0x0008 Bytes, ...) -- CPU_ReadMem(8 bytes @ 0xE000E300) -- Data:  00 00 00 00 00 00 00 00  returns 0x00 (0002ms, 1494ms total)
T1CB4 002:017 JLINK_ReadMem (0xE000E400, 0x0040 Bytes, ...) -- CPU_ReadMem(64 bytes @ 0xE000E400) -- Data:  00 00 00 00 00 00 00 00 00 00 00 00 00 00 00 00 ...  returns 0x00 (0001ms, 1495ms total)
T1CB4 003:068 JLINK_ReadMem (0x10000006, 0x0002 Bytes, ...) -- CPU_ReadMem(64 bytes @ 0x10000000) -- Updating C cache (64 bytes @ 0x10000000) -- Read from C cache (2 bytes @ 0x10000006) -- Data:  2D 06  returns 0x00 (0003ms, 1498ms total)
T1CB4 003:082 JLINK_ReadMem (0x1000000C, 0x0004 Bytes, ...) -- Read from C cache (4 bytes @ 0x1000000C) -- Data:  40 00 00 D3  returns 0x00 (0000ms, 1498ms total)
T1CB4 003:086 JLINK_ReadMem (0x1000002A, 0x0001 Bytes, ...) -- Read from C cache (1 bytes @ 0x1000002A) -- Data:  01  returns 0x00 (0000ms, 1498ms total)
T0B00 003:119 JLINK_SetBPEx(Addr = 0x00001068, Type = 0xFFFFFFF2)  returns 0x00000001 (0000ms, 1498ms total)
T0B00 003:119 JLINK_ReadMemU32(0xE0001004, 0x0001 Items, ...) -- CPU_ReadMem(4 bytes @ 0xE0001004) -- Data:  04 04 00 00  returns 0x01 (0001ms, 1499ms total)
T0B00 003:120 JLINK_WriteU32(0xE0001004, 0x000003FF) -- CPU_WriteMem(4 bytes @ 0xE0001004)  returns 0x00 (0001ms, 1500ms total)
T0B00 003:121 JLINK_WriteU32(0xE0001000, 0x0001161F)  returns 0x00 (0000ms, 1500ms total)
T0B00 003:121 JLINK_WriteU32(0xE0000E80, 0x0001000F)  returns 0x00 (0000ms, 1500ms total)
T0B00 003:121 JLINK_SWO_Control(JLINKARM_SWO_CMD_GET_NUM_BYTES, ...)  returns 0x0A (0000ms, 1500ms total)
T0B00 003:121 JLINK_SWO_Control(JLINKARM_SWO_CMD_FLUSH, ...)  returns 0x00 (0000ms, 1500ms total)
T0B00 003:121 JLINK_Go() -- CPU_WriteMem(4 bytes @ 0xE0002000) -- CPU_WriteMem(4 bytes @ 0xE0000E80) -- CPU_WriteMem(4 bytes @ 0xE0001000) -- CPU_WriteMem(4 bytes @ 0xE0001008) -- CPU_WriteMem(4 bytes @ 0xE000100C) -- CPU_WriteMem(4 bytes @ 0xE0001010) -- CPU_WriteMem(4 bytes @ 0xE0001014) -- CPU_WriteMem(4 bytes @ 0xE0001018) -- CPU_WriteMem(4 bytes @ 0xE0002008) -- CPU_WriteMem(4 bytes @ 0xE000200C) -- CPU_WriteMem(4 bytes @ 0xE0002010) -- CPU_WriteMem(4 bytes @ 0xE0002014)
 -- CPU_WriteMem(4 bytes @ 0xE0002018) -- CPU_WriteMem(4 bytes @ 0xE000201C) -- CPU_WriteMem(4 bytes @ 0xE0001004) (0010ms, 1510ms total)
T0B00 003:232 JLINK_SWO_Read(..., Offset = 0x00, NumBytes = 0x400000) -- Data:   NumBytesRead = 0x00 (0000ms, 1510ms total)
T0B00 003:234 JLINK_SWO_Control(JLINKARM_SWO_CMD_FLUSH, ...)  returns 0x00 (0000ms, 1510ms total)
T0B00 003:234 JLINK_IsHalted()  returns TRUE (0003ms, 1513ms total)
T0B00 003:237 JLINK_Halt()  returns 0x00 (0000ms, 1510ms total)
T0B00 003:237 JLINK_IsHalted()  returns TRUE (0000ms, 1510ms total)
T0B00 003:237 JLINK_IsHalted()  returns TRUE (0000ms, 1510ms total)
T0B00 003:237 JLINK_IsHalted()  returns TRUE (0000ms, 1510ms total)
T0B00 003:237 JLINK_ReadReg(R15 (PC))  returns 0x00001068 (0000ms, 1510ms total)
T0B00 003:237 JLINK_ReadReg(XPSR)  returns 0x21000000 (0000ms, 1510ms total)
T0B00 003:237 JLINK_SWO_Read(..., Offset = 0x00, NumBytes = 0x400000) -- Data:   NumBytesRead = 0x00 (0000ms, 1511ms total)
T0B00 003:240 JLINK_SWO_Control(JLINKARM_SWO_CMD_FLUSH, ...)  returns 0x00 (0000ms, 1511ms total)
T0B00 003:240 JLINK_ClrBPEx(BPHandle = 0x00000001)  returns 0x00 (0000ms, 1511ms total)
T0B00 003:240 JLINK_ReadMemU32(0xE000ED30, 0x0001 Items, ...) -- CPU_ReadMem(4 bytes @ 0xE000ED30) -- Data:  03 00 00 00  returns 0x01 (0000ms, 1511ms total)
T0B00 003:240 JLINK_ReadMemU32(0xE0001028, 0x0001 Items, ...) -- CPU_ReadMem(4 bytes @ 0xE0001028) -- Data:  00 00 00 00  returns 0x01 (0001ms, 1512ms total)
T0B00 003:241 JLINK_ReadMemU32(0xE0001038, 0x0001 Items, ...) -- CPU_ReadMem(4 bytes @ 0xE0001038) -- Data:  00 02 00 00  returns 0x01 (0001ms, 1513ms total)
T0B00 003:242 JLINK_ReadMemU32(0xE0001048, 0x0001 Items, ...) -- CPU_ReadMem(4 bytes @ 0xE0001048) -- Data:  00 00 00 00  returns 0x01 (0001ms, 1514ms total)
T0B00 003:243 JLINK_ReadMemU32(0xE0001058, 0x0001 Items, ...) -- CPU_ReadMem(4 bytes @ 0xE0001058) -- Data:  00 00 00 01  returns 0x01 (0000ms, 1514ms total)
T0B00 003:243 JLINK_ReadReg(R0)  returns 0x10007DD0 (0000ms, 1514ms total)
T0B00 003:243 JLINK_ReadReg(R1)  returns 0x10007DD0 (0000ms, 1514ms total)
T0B00 003:243 JLINK_ReadReg(R2)  returns 0x10007DD0 (0000ms, 1514ms total)
T0B00 003:244 JLINK_ReadReg(R3)  returns 0x10007DD0 (0000ms, 1515ms total)
T0B00 003:244 JLINK_ReadReg(R4)  returns 0x00000000 (0000ms, 1515ms total)
T0B00 003:244 JLINK_ReadReg(R5)  returns 0x10007D70 (0000ms, 1515ms total)
T0B00 003:244 JLINK_ReadReg(R6)  returns 0x00000000 (0000ms, 1515ms total)
T0B00 003:244 JLINK_ReadReg(R7)  returns 0x00000000 (0000ms, 1515ms total)
T0B00 003:244 JLINK_ReadReg(R8)  returns 0x00000000 (0000ms, 1515ms total)
T0B00 003:244 JLINK_ReadReg(R9)  returns 0x100001DC (0000ms, 1515ms total)
T0B00 003:244 JLINK_ReadReg(R10)  returns 0x00006998 (0000ms, 1515ms total)
T0B00 003:244 JLINK_ReadReg(R11)  returns 0x00000000 (0000ms, 1515ms total)
T0B00 003:244 JLINK_ReadReg(R12)  returns 0x10007DB0 (0000ms, 1515ms total)
T0B00 003:244 JLINK_ReadReg(R13 (SP))  returns 0x10007FD0 (0000ms, 1515ms total)
T0B00 003:244 JLINK_ReadReg(R14)  returns 0x00000157 (0000ms, 1515ms total)
T0B00 003:244 JLINK_ReadReg(R15 (PC))  returns 0x00001068 (0000ms, 1515ms total)
T0B00 003:244 JLINK_ReadReg(XPSR)  returns 0x21000000 (0000ms, 1515ms total)
T0B00 003:244 JLINK_ReadReg(MSP)  returns 0x10007FD0 (0000ms, 1515ms total)
T0B00 003:244 JLINK_ReadReg(PSP)  returns 0x10000800 (0000ms, 1515ms total)
T0B00 003:244 JLINK_ReadReg(CFBP)  returns 0x00000000 (0000ms, 1515ms total)
T1CB4 003:246 JLINK_ReadMemU32(0xE0001004, 0x0001 Items, ...) -- CPU_ReadMem(4 bytes @ 0xE0001004) -- Data:  62 59 00 00  returns 0x01 (0001ms, 1516ms total)
T1CB4 003:247 JLINK_ReadMem (0x10000006, 0x0002 Bytes, ...) -- CPU_ReadMem(64 bytes @ 0x10000000) -- Updating C cache (64 bytes @ 0x10000000) -- Read from C cache (2 bytes @ 0x10000006) -- Data:  5A 00  returns 0x00 (0001ms, 1517ms total)
T1CB4 003:249 JLINK_ReadMem (0x1000000C, 0x0004 Bytes, ...) -- Read from C cache (4 bytes @ 0x1000000C) -- Data:  00 00 00 00  returns 0x00 (0001ms, 1518ms total)
T1CB4 003:250 JLINK_ReadMem (0x1000002A, 0x0001 Bytes, ...) -- Read from C cache (1 bytes @ 0x1000002A) -- Data:  00  returns 0x00 (0000ms, 1518ms total)
T1CB4 003:252 JLINK_ReadMem (0xE000ED04, 0x0004 Bytes, ...) -- CPU_ReadMem(4 bytes @ 0xE000ED04) -- Data:  00 00 40 00  returns 0x00 (0001ms, 1519ms total)
T1CB4 003:253 JLINK_ReadMem (0xE000ED08, 0x0004 Bytes, ...) -- CPU_ReadMem(4 bytes @ 0xE000ED08) -- Data:  00 00 00 00  returns 0x00 (0001ms, 1520ms total)
T1CB4 003:254 JLINK_ReadMem (0xE000ED0C, 0x0004 Bytes, ...) -- CPU_ReadMem(4 bytes @ 0xE000ED0C) -- Data:  00 00 05 FA  returns 0x00 (0001ms, 1521ms total)
T1CB4 003:255 JLINK_ReadMem (0xE000ED18, 0x0004 Bytes, ...) -- CPU_ReadMem(4 bytes @ 0xE000ED18) -- Data:  00 00 00 00  returns 0x00 (0000ms, 1521ms total)
T1CB4 003:255 JLINK_ReadMem (0xE000ED1C, 0x0004 Bytes, ...) -- CPU_ReadMem(4 bytes @ 0xE000ED1C) -- Data:  00 00 00 00  returns 0x00 (0001ms, 1522ms total)
T1CB4 003:256 JLINK_ReadMem (0xE000ED20, 0x0004 Bytes, ...) -- CPU_ReadMem(4 bytes @ 0xE000ED20) -- Data:  00 00 00 00  returns 0x00 (0001ms, 1523ms total)
T1CB4 003:257 JLINK_ReadMem (0xE000ED24, 0x0004 Bytes, ...) -- CPU_ReadMem(4 bytes @ 0xE000ED24) -- Data:  00 00 00 00  returns 0x00 (0001ms, 1524ms total)
T1CB4 003:258 JLINK_ReadMem (0xE000EDFC, 0x0004 Bytes, ...) -- Data:  00 00 00 01  returns 0x00 (0000ms, 1524ms total)
T1CB4 003:258 JLINK_ReadMem (0xE000E100, 0x0008 Bytes, ...) -- CPU_ReadMem(8 bytes @ 0xE000E100) -- Data:  00 00 00 00 00 00 00 00  returns 0x00 (0000ms, 1524ms total)
T1CB4 003:258 JLINK_ReadMem (0xE000E200, 0x0008 Bytes, ...) -- CPU_ReadMem(8 bytes @ 0xE000E200) -- Data:  00 00 01 00 01 00 00 00  returns 0x00 (0001ms, 1525ms total)
T1CB4 003:260 JLINK_ReadMem (0xE000E300, 0x0008 Bytes, ...) -- CPU_ReadMem(8 bytes @ 0xE000E300) -- Data:  00 00 00 00 00 00 00 00  returns 0x00 (0000ms, 1525ms total)
T1CB4 003:260 JLINK_ReadMem (0xE000E400, 0x0040 Bytes, ...) -- CPU_ReadMem(64 bytes @ 0xE000E400) -- Data:  00 00 00 00 00 00 00 00 00 00 00 00 00 00 00 00 ...  returns 0x00 (0002ms, 1527ms total)
T1CB4 003:264 JLINK_ReadMem (0x00001064, 0x003C Bytes, ...) -- CPU_ReadMem(128 bytes @ 0x00001040) -- Updating C cache (128 bytes @ 0x00001040) -- Read from C cache (60 bytes @ 0x00001064) -- Data:  BD E8 FF 9F FF F7 48 FB FF F7 71 FB FF F7 E2 FA ...  returns 0x00 (0002ms, 1529ms total)
T1CB4 003:266 JLINK_ReadMem (0x0000105E, 0x0002 Bytes, ...) -- Read from C cache (2 bytes @ 0x0000105E) -- Data:  00 20  returns 0x00 (0000ms, 1529ms total)
T1CB4 003:266 JLINK_ReadMem (0x00001060, 0x003C Bytes, ...) -- Read from C cache (60 bytes @ 0x00001060) -- Data:  62 49 08 80 BD E8 FF 9F FF F7 48 FB FF F7 71 FB ...  returns 0x00 (0000ms, 1529ms total)
T0B00 005:320 JLINK_ReadMemU32(0xE0001004, 0x0001 Items, ...) -- Data:  62 59 00 00  returns 0x01 (0001ms, 1530ms total)
T0B00 005:321 JLINK_WriteU32(0xE0001004, 0x00005BFF) -- CPU_WriteMem(4 bytes @ 0xE0001004)  returns 0x00 (0001ms, 1531ms total)
T0B00 005:323 JLINK_WriteU32(0xE0001000, 0x0001161F)  returns 0x00 (0000ms, 1531ms total)
T0B00 005:323 JLINK_WriteU32(0xE0000E80, 0x0001000F)  returns 0x00 (0000ms, 1531ms total)
T0B00 005:323 JLINK_SWO_Control(JLINKARM_SWO_CMD_GET_NUM_BYTES, ...)  returns 0x00 (0000ms, 1531ms total)
T0B00 005:324 JLINK_Go() -- CPU_WriteMem(4 bytes @ 0xE0000E80) -- CPU_WriteMem(4 bytes @ 0xE0001000) -- CPU_WriteMem(4 bytes @ 0xE0002008) (0004ms, 1535ms total)
T0B00 005:429 JLINK_SWO_Read(..., Offset = 0x00, NumBytes = 0x400000) -- Data:  00 FC FC 80 E8 F7 F7 F0 E0 F8 FC B0 B1 BF F7 F7 ...  NumBytesRead = 0x14E (0000ms, 1535ms total)
T0B00 005:431 JLINK_SWO_Control(JLINKARM_SWO_CMD_FLUSH, ...)  returns 0x00 (0000ms, 1535ms total)
T0B00 005:431 JLINK_IsHalted()  returns FALSE (0001ms, 1536ms total)
T0B00 005:533 JLINK_SWO_Read(..., Offset = 0x00, NumBytes = 0x400000) -- Data:  F8 B1 B1 BF B7 F7 F7 F8 E0 F8 B1 BF B7 F7 E0 F7 ...  NumBytesRead = 0x153 (0000ms, 1535ms total)
T0B00 005:535 JLINK_SWO_Control(JLINKARM_SWO_CMD_FLUSH, ...)  returns 0x00 (0000ms, 1535ms total)
T0B00 005:535 JLINK_IsHalted()  returns FALSE (0001ms, 1536ms total)
T0B00 005:637 JLINK_SWO_Read(..., Offset = 0x00, NumBytes = 0x400000) -- Data:  F7 F7 F8 B1 BF E8 BF F7 F7 F7 F8 B1 B1 BF BF F7 ...  NumBytesRead = 0x157 (0000ms, 1535ms total)
T0B00 005:639 JLINK_SWO_Control(JLINKARM_SWO_CMD_FLUSH, ...)  returns 0x00 (0000ms, 1535ms total)
T0B00 005:639 JLINK_IsHalted()  returns FALSE (0002ms, 1537ms total)
T0B00 005:741 JLINK_SWO_Read(..., Offset = 0x00, NumBytes = 0x400000) -- Data:  BF B7 F7 F7 F8 E0 B1 BF BF F7 F7 F8 E0 F8 B1 BF ...  NumBytesRead = 0x153 (0000ms, 1535ms total)
T0B00 005:743 JLINK_SWO_Control(JLINKARM_SWO_CMD_FLUSH, ...)  returns 0x00 (0000ms, 1535ms total)
T0B00 005:743 JLINK_IsHalted()  returns FALSE (0002ms, 1537ms total)
T0B00 005:845 JLINK_SWO_Read(..., Offset = 0x00, NumBytes = 0x400000) -- Data:  B7 E0 F7 F7 F8 F8 B1 BF E8 BF F7 F7 F7 F7 B1 B1 ...  NumBytesRead = 0x152 (0000ms, 1535ms total)
T0B00 005:847 JLINK_SWO_Control(JLINKARM_SWO_CMD_FLUSH, ...)  returns 0x00 (0000ms, 1535ms total)
T0B00 005:847 JLINK_ReadMemU32(0xE0001004, 0x0001 Items, ...) -- CPU is running -- CPU_ReadMem(4 bytes @ 0xE0001004) -- Data:  10 EE 1A 03  returns 0x01 (0001ms, 1536ms total)
T1CB4 005:968 JLINK_ReadMem (0x10000006, 0x0002 Bytes, ...) -- CPU is running -- CPU_ReadMem(2 bytes @ 0x10000006) -- Data:  5A 00  returns 0x00 (0002ms, 1538ms total)
T1CB4 005:974 JLINK_ReadMem (0x1000000C, 0x0004 Bytes, ...) -- CPU is running -- CPU_ReadMem(4 bytes @ 0x1000000C) -- Data:  00 00 00 00  returns 0x00 (0001ms, 1539ms total)
T1CB4 005:976 JLINK_ReadMem (0x1000002A, 0x0001 Bytes, ...) -- CPU is running -- CPU_ReadMem(1 bytes @ 0x1000002A) -- Data:  00  returns 0x00 (0003ms, 1542ms total)
T1CB4 005:980 JLINK_ReadMem (0x1000002A, 0x0001 Bytes, ...) -- CPU is running -- CPU_ReadMem(1 bytes @ 0x1000002A) -- Data:  00  returns 0x00 (0001ms, 1543ms total)
T0B00 005:987 JLINK_IsHalted()  returns FALSE (0001ms, 1544ms total)
T0B00 006:088 JLINK_SWO_Read(..., Offset = 0x00, NumBytes = 0x400000) -- Data:  F7 F7 F7 F8 E0 B1 BF B1 BF E8 F7 F7 F8 F8 B1 BF ...  NumBytesRead = 0x314 (0000ms, 1543ms total)
T0B00 006:090 JLINK_SWO_Control(JLINKARM_SWO_CMD_FLUSH, ...)  returns 0x00 (0000ms, 1543ms total)
T0B00 006:090 JLINK_IsHalted()  returns FALSE (0002ms, 1545ms total)
T0B00 006:192 JLINK_SWO_Read(..., Offset = 0x00, NumBytes = 0x400000) -- Data:  BF E0 F7 E8 F7 F8 F8 B1 B1 BF B7 F7 F7 F7 E0 F8 ...  NumBytesRead = 0x156 (0000ms, 1543ms total)
T0B00 006:194 JLINK_SWO_Control(JLINKARM_SWO_CMD_FLUSH, ...)  returns 0x00 (0000ms, 1543ms total)
T0B00 006:194 JLINK_IsHalted()  returns FALSE (0001ms, 1544ms total)
T0B00 006:296 JLINK_SWO_Read(..., Offset = 0x00, NumBytes = 0x400000) -- Data:  F7 B1 BF B7 E8 BF F7 F7 F8 B1 B1 B1 B7 F7 E0 F7 ...  NumBytesRead = 0x151 (0000ms, 1543ms total)
T0B00 006:298 JLINK_SWO_Control(JLINKARM_SWO_CMD_FLUSH, ...)  returns 0x00 (0000ms, 1543ms total)
T0B00 006:298 JLINK_IsHalted()  returns FALSE (0001ms, 1544ms total)
T0B00 006:399 JLINK_Halt()  returns 0x00 (0005ms, 1548ms total)
T0B00 006:404 JLINK_IsHalted()  returns TRUE (0000ms, 1548ms total)
T0B00 006:404 JLINK_IsHalted()  returns TRUE (0000ms, 1548ms total)
T0B00 006:404 JLINK_IsHalted()  returns TRUE (0000ms, 1548ms total)
T0B00 006:404 JLINK_ReadReg(R15 (PC))  returns 0x00001094 (0000ms, 1548ms total)
T0B00 006:404 JLINK_ReadReg(XPSR)  returns 0x81000000 (0000ms, 1548ms total)
T0B00 006:404 JLINK_SWO_Read(..., Offset = 0x00, NumBytes = 0x400000) -- Data:  E0 F7 F7 F8 F8 B1 BF E8 BF F7 F7 F7 F8 B1 BF BF ...  NumBytesRead = 0x157 (0000ms, 1548ms total)
T0B00 006:406 JLINK_SWO_Control(JLINKARM_SWO_CMD_FLUSH, ...)  returns 0x00 (0000ms, 1548ms total)
T0B00 006:406 JLINK_ReadMemU32(0xE000ED30, 0x0001 Items, ...) -- CPU_ReadMem(4 bytes @ 0xE000ED30) -- Data:  01 00 00 00  returns 0x01 (0002ms, 1550ms total)
T0B00 006:408 JLINK_ReadMemU32(0xE0001028, 0x0001 Items, ...) -- CPU_ReadMem(4 bytes @ 0xE0001028) -- Data:  00 00 00 00  returns 0x01 (0001ms, 1551ms total)
T0B00 006:409 JLINK_ReadMemU32(0xE0001038, 0x0001 Items, ...) -- CPU_ReadMem(4 bytes @ 0xE0001038) -- Data:  00 02 00 00  returns 0x01 (0001ms, 1552ms total)
T0B00 006:410 JLINK_ReadMemU32(0xE0001048, 0x0001 Items, ...) -- CPU_ReadMem(4 bytes @ 0xE0001048) -- Data:  00 00 00 00  returns 0x01 (0001ms, 1553ms total)
T0B00 006:411 JLINK_ReadMemU32(0xE0001058, 0x0001 Items, ...) -- CPU_ReadMem(4 bytes @ 0xE0001058) -- Data:  00 00 00 00  returns 0x01 (0000ms, 1553ms total)
T0B00 006:411 JLINK_ReadReg(R0)  returns 0x1000001C (0000ms, 1553ms total)
T0B00 006:411 JLINK_ReadReg(R1)  returns 0x40004000 (0000ms, 1553ms total)
T0B00 006:411 JLINK_ReadReg(R2)  returns 0xE000E000 (0000ms, 1553ms total)
T0B00 006:411 JLINK_ReadReg(R3)  returns 0xE000E000 (0000ms, 1553ms total)
T0B00 006:411 JLINK_ReadReg(R4)  returns 0x00000000 (0000ms, 1553ms total)
T0B00 006:411 JLINK_ReadReg(R5)  returns 0x10007D70 (0000ms, 1553ms total)
T0B00 006:411 JLINK_ReadReg(R6)  returns 0x00000000 (0000ms, 1553ms total)
T0B00 006:411 JLINK_ReadReg(R7)  returns 0x00000000 (0000ms, 1553ms total)
T0B00 006:411 JLINK_ReadReg(R8)  returns 0x00000000 (0000ms, 1553ms total)
T0B00 006:411 JLINK_ReadReg(R9)  returns 0x100001DC (0000ms, 1553ms total)
T0B00 006:411 JLINK_ReadReg(R10)  returns 0x00006998 (0000ms, 1553ms total)
T0B00 006:411 JLINK_ReadReg(R11)  returns 0x00000000 (0000ms, 1553ms total)
T0B00 006:411 JLINK_ReadReg(R12)  returns 0x10007DB0 (0000ms, 1553ms total)
T0B00 006:411 JLINK_ReadReg(R13 (SP))  returns 0x10007FD0 (0000ms, 1553ms total)
T0B00 006:411 JLINK_ReadReg(R14)  returns 0x00000F39 (0000ms, 1553ms total)
T0B00 006:411 JLINK_ReadReg(R15 (PC))  returns 0x00001094 (0000ms, 1553ms total)
T0B00 006:411 JLINK_ReadReg(XPSR)  returns 0x81000000 (0000ms, 1553ms total)
T0B00 006:411 JLINK_ReadReg(MSP)  returns 0x10007FD0 (0000ms, 1553ms total)
T0B00 006:411 JLINK_ReadReg(PSP)  returns 0x10000800 (0000ms, 1553ms total)
T0B00 006:411 JLINK_ReadReg(CFBP)  returns 0x00000000 (0000ms, 1553ms total)
T1CB4 006:411 JLINK_ReadMemU32(0xE0001004, 0x0001 Items, ...) -- CPU_ReadMem(4 bytes @ 0xE0001004) -- Data:  C5 88 64 06  returns 0x01 (0001ms, 1554ms total)
T1CB4 006:413 JLINK_ReadMem (0x10000006, 0x0002 Bytes, ...) -- CPU_ReadMem(64 bytes @ 0x10000000) -- Updating C cache (64 bytes @ 0x10000000) -- Read from C cache (2 bytes @ 0x10000006) -- Data:  5A 00  returns 0x00 (0002ms, 1556ms total)
T1CB4 006:416 JLINK_ReadMem (0x1000000C, 0x0004 Bytes, ...) -- Read from C cache (4 bytes @ 0x1000000C) -- Data:  00 00 00 00  returns 0x00 (0000ms, 1556ms total)
T1CB4 006:416 JLINK_ReadMem (0x1000002A, 0x0001 Bytes, ...) -- Read from C cache (1 bytes @ 0x1000002A) -- Data:  00  returns 0x00 (0000ms, 1556ms total)
T1CB4 006:416 JLINK_ReadMem (0xE000ED04, 0x0004 Bytes, ...) -- CPU_ReadMem(4 bytes @ 0xE000ED04) -- Data:  00 00 40 00  returns 0x00 (0001ms, 1557ms total)
T1CB4 006:417 JLINK_ReadMem (0xE000ED08, 0x0004 Bytes, ...) -- CPU_ReadMem(4 bytes @ 0xE000ED08) -- Data:  00 00 00 00  returns 0x00 (0001ms, 1558ms total)
T1CB4 006:418 JLINK_ReadMem (0xE000ED0C, 0x0004 Bytes, ...) -- CPU_ReadMem(4 bytes @ 0xE000ED0C) -- Data:  00 02 05 FA  returns 0x00 (0001ms, 1559ms total)
T1CB4 006:419 JLINK_ReadMem (0xE000ED18, 0x0004 Bytes, ...) -- CPU_ReadMem(4 bytes @ 0xE000ED18) -- Data:  00 00 00 00  returns 0x00 (0000ms, 1559ms total)
T1CB4 006:419 JLINK_ReadMem (0xE000ED1C, 0x0004 Bytes, ...) -- CPU_ReadMem(4 bytes @ 0xE000ED1C) -- Data:  00 00 00 00  returns 0x00 (0002ms, 1561ms total)
T1CB4 006:421 JLINK_ReadMem (0xE000ED20, 0x0004 Bytes, ...) -- CPU_ReadMem(4 bytes @ 0xE000ED20) -- Data:  00 00 00 00  returns 0x00 (0001ms, 1562ms total)
T1CB4 006:422 JLINK_ReadMem (0xE000ED24, 0x0004 Bytes, ...) -- CPU_ReadMem(4 bytes @ 0xE000ED24) -- Data:  00 00 00 00  returns 0x00 (0001ms, 1563ms total)
T1CB4 006:423 JLINK_ReadMem (0xE000EDFC, 0x0004 Bytes, ...) -- Data:  00 00 00 01  returns 0x00 (0000ms, 1563ms total)
T1CB4 006:423 JLINK_ReadMem (0xE000E100, 0x0008 Bytes, ...) -- CPU_ReadMem(8 bytes @ 0xE000E100) -- Data:  0E 00 7C 00 00 00 00 00  returns 0x00 (0001ms, 1564ms total)
T1CB4 006:424 JLINK_ReadMem (0xE000E200, 0x0008 Bytes, ...) -- CPU_ReadMem(8 bytes @ 0xE000E200) -- Data:  00 00 01 00 01 00 00 00  returns 0x00 (0001ms, 1565ms total)
T1CB4 006:425 JLINK_ReadMem (0xE000E300, 0x0008 Bytes, ...) -- CPU_ReadMem(8 bytes @ 0xE000E300) -- Data:  00 00 00 00 00 00 00 00  returns 0x00 (0001ms, 1566ms total)
T1CB4 006:427 JLINK_ReadMem (0xE000E400, 0x0040 Bytes, ...) -- CPU_ReadMem(64 bytes @ 0xE000E400) -- Data:  00 08 10 08 00 00 00 00 00 00 00 00 00 00 00 00 ...  returns 0x00 (0002ms, 1568ms total)
T1CB4 006:434 JLINK_ReadMem (0x00001094, 0x003C Bytes, ...) -- CPU_ReadMem(128 bytes @ 0x00001080) -- Updating C cache (128 bytes @ 0x00001080) -- Read from C cache (60 bytes @ 0x00001094) -- Data:  00 78 01 28 FA D1 5C 49 5E 48 00 68 01 F0 AE FB ...  returns 0x00 (0003ms, 1571ms total)
T0B00 753:946 JLINK_ReadMemU32(0xE0001004, 0x0001 Items, ...) -- Data:  C5 88 64 06  returns 0x01 (0001ms, 1572ms total)
T0B00 753:947 JLINK_WriteU32(0xE0001004, 0x06648BFF) -- CPU_WriteMem(4 bytes @ 0xE0001004)  returns 0x00 (0002ms, 1574ms total)
T0B00 753:949 JLINK_WriteU32(0xE0001000, 0x0001161F)  returns 0x00 (0000ms, 1574ms total)
T0B00 753:949 JLINK_WriteU32(0xE0000E80, 0x0001000F)  returns 0x00 (0000ms, 1574ms total)
T0B00 753:949 JLINK_SWO_Control(JLINKARM_SWO_CMD_GET_NUM_BYTES, ...)  returns 0x00 (0000ms, 1574ms total)
T0B00 753:949 JLINK_Go() -- CPU_WriteMem(4 bytes @ 0xE0000E80) -- CPU_WriteMem(4 bytes @ 0xE0001000) (0004ms, 1578ms total)
T0B00 754:054 JLINK_SWO_Read(..., Offset = 0x00, NumBytes = 0x400000) -- Data:  BF F7 FF B1 BF F7 F7 E0 F8 F8 B1 BF BF E8 F7 F7 ...  NumBytesRead = 0x14F (0000ms, 1578ms total)
T0B00 754:056 JLINK_SWO_Control(JLINKARM_SWO_CMD_FLUSH, ...)  returns 0x00 (0000ms, 1578ms total)
T0B00 754:056 JLINK_IsHalted()  returns FALSE (0001ms, 1579ms total)
T0B00 754:158 JLINK_SWO_Read(..., Offset = 0x00, NumBytes = 0x400000) -- Data:  E0 E0 B1 BF B7 F7 F7 E0 F8 F8 B1 BF E8 B7 F7 F7 ...  NumBytesRead = 0x153 (0000ms, 1578ms total)
T0B00 754:160 JLINK_SWO_Control(JLINKARM_SWO_CMD_FLUSH, ...)  returns 0x00 (0000ms, 1578ms total)
T0B00 754:160 JLINK_IsHalted()  returns FALSE (0001ms, 1579ms total)
T0B00 754:262 JLINK_SWO_Read(..., Offset = 0x00, NumBytes = 0x400000) -- Data:  F7 F7 F8 E0 F8 B1 BF B1 BF F7 F7 F8 F8 B1 BF BF ...  NumBytesRead = 0x14F (0000ms, 1578ms total)
T0B00 754:264 JLINK_SWO_Control(JLINKARM_SWO_CMD_FLUSH, ...)  returns 0x00 (0000ms, 1578ms total)
T0B00 754:264 JLINK_IsHalted()  returns FALSE (0001ms, 1579ms total)
T0B00 754:365 JLINK_SWO_Read(..., Offset = 0x00, NumBytes = 0x400000) -- Data:  F7 F7 F8 E0 B1 B1 BF F7 F7 E0 F7 F8 B1 B1 B1 B7 ...  NumBytesRead = 0x154 (0000ms, 1578ms total)
T0B00 754:367 JLINK_SWO_Control(JLINKARM_SWO_CMD_FLUSH, ...)  returns 0x00 (0000ms, 1578ms total)
T0B00 754:367 JLINK_IsHalted()  returns FALSE (0001ms, 1579ms total)
T0B00 754:469 JLINK_SWO_Read(..., Offset = 0x00, NumBytes = 0x400000) -- Data:  F8 B1 BF BF F7 F7 E0 F7 F8 B1 BF BF F7 B7 F7 F7 ...  NumBytesRead = 0x156 (0000ms, 1578ms total)
T0B00 754:471 JLINK_SWO_Control(JLINKARM_SWO_CMD_FLUSH, ...)  returns 0x00 (0000ms, 1578ms total)
T0B00 754:471 JLINK_ReadMemU32(0xE0001004, 0x0001 Items, ...) -- CPU is running -- CPU_ReadMem(4 bytes @ 0xE0001004) -- Data:  B4 99 7C 09  returns 0x01 (0001ms, 1579ms total)
T1CB4 754:472 JLINK_ReadMem (0x10000006, 0x0002 Bytes, ...) -- CPU is running -- CPU_ReadMem(2 bytes @ 0x10000006) -- Data:  5A 00  returns 0x00 (0001ms, 1580ms total)
T1CB4 754:473 JLINK_ReadMem (0x1000000C, 0x0004 Bytes, ...) -- CPU is running -- CPU_ReadMem(4 bytes @ 0x1000000C) -- Data:  00 00 00 00  returns 0x00 (0001ms, 1581ms total)
T1CB4 754:474 JLINK_ReadMem (0x1000002A, 0x0001 Bytes, ...) -- CPU is running -- CPU_ReadMem(1 bytes @ 0x1000002A) -- Data:  00  returns 0x00 (0001ms, 1582ms total)
T1CB4 754:475 JLINK_ReadMem (0x1000002A, 0x0001 Bytes, ...) -- CPU is running -- CPU_ReadMem(1 bytes @ 0x1000002A) -- Data:  00  returns 0x00 (0002ms, 1584ms total)
T0B00 754:481 JLINK_IsHalted()  returns FALSE (0001ms, 1585ms total)
T0B00 754:583 JLINK_SWO_Read(..., Offset = 0x00, NumBytes = 0x400000) -- Data:  E0 B1 B1 B7 BF F7 F7 F8 E0 B1 B1 BF E8 F7 F7 F8 ...  NumBytesRead = 0x179 (0000ms, 1585ms total)
T0B00 754:585 JLINK_SWO_Control(JLINKARM_SWO_CMD_FLUSH, ...)  returns 0x00 (0000ms, 1585ms total)
T0B00 754:585 JLINK_IsHalted()  returns FALSE (0001ms, 1586ms total)
T0B00 754:688 JLINK_Halt()  returns 0x00 (0005ms, 1590ms total)
T0B00 754:693 JLINK_IsHalted()  returns TRUE (0000ms, 1590ms total)
T0B00 754:693 JLINK_IsHalted()  returns TRUE (0000ms, 1590ms total)
T0B00 754:693 JLINK_IsHalted()  returns TRUE (0000ms, 1590ms total)
T0B00 754:693 JLINK_ReadReg(R15 (PC))  returns 0x00001096 (0000ms, 1590ms total)
T0B00 754:693 JLINK_ReadReg(XPSR)  returns 0x81000000 (0000ms, 1590ms total)
T0B00 754:693 JLINK_SWO_Read(..., Offset = 0x00, NumBytes = 0x400000) -- Data:  F7 F7 F7 E0 B1 B1 BF BF F7 E8 F7 F7 F8 B1 B1 E8 ...  NumBytesRead = 0x14E (0000ms, 1590ms total)
T0B00 754:695 JLINK_SWO_Control(JLINKARM_SWO_CMD_FLUSH, ...)  returns 0x00 (0000ms, 1590ms total)
T0B00 754:695 JLINK_ReadMemU32(0xE000ED30, 0x0001 Items, ...) -- CPU_ReadMem(4 bytes @ 0xE000ED30) -- Data:  01 00 00 00  returns 0x01 (0001ms, 1591ms total)
T0B00 754:696 JLINK_ReadMemU32(0xE0001028, 0x0001 Items, ...) -- CPU_ReadMem(4 bytes @ 0xE0001028) -- Data:  00 00 00 00  returns 0x01 (0001ms, 1592ms total)
T0B00 754:697 JLINK_ReadMemU32(0xE0001038, 0x0001 Items, ...) -- CPU_ReadMem(4 bytes @ 0xE0001038) -- Data:  00 02 00 00  returns 0x01 (0001ms, 1593ms total)
T0B00 754:698 JLINK_ReadMemU32(0xE0001048, 0x0001 Items, ...) -- CPU_ReadMem(4 bytes @ 0xE0001048) -- Data:  00 00 00 00  returns 0x01 (0002ms, 1595ms total)
T0B00 754:700 JLINK_ReadMemU32(0xE0001058, 0x0001 Items, ...) -- CPU_ReadMem(4 bytes @ 0xE0001058) -- Data:  00 00 00 00  returns 0x01 (0001ms, 1596ms total)
T0B00 754:701 JLINK_ReadReg(R0)  returns 0x00000000 (0000ms, 1596ms total)
T0B00 754:701 JLINK_ReadReg(R1)  returns 0x40004000 (0000ms, 1596ms total)
T0B00 754:701 JLINK_ReadReg(R2)  returns 0xE000E000 (0000ms, 1596ms total)
T0B00 754:701 JLINK_ReadReg(R3)  returns 0xE000E000 (0000ms, 1596ms total)
T0B00 754:701 JLINK_ReadReg(R4)  returns 0x00000000 (0000ms, 1596ms total)
T0B00 754:701 JLINK_ReadReg(R5)  returns 0x10007D70 (0000ms, 1596ms total)
T0B00 754:701 JLINK_ReadReg(R6)  returns 0x00000000 (0001ms, 1597ms total)
T0B00 754:702 JLINK_ReadReg(R7)  returns 0x00000000 (0000ms, 1597ms total)
T0B00 754:702 JLINK_ReadReg(R8)  returns 0x00000000 (0000ms, 1597ms total)
T0B00 754:702 JLINK_ReadReg(R9)  returns 0x100001DC (0000ms, 1597ms total)
T0B00 754:702 JLINK_ReadReg(R10)  returns 0x00006998 (0000ms, 1597ms total)
T0B00 754:702 JLINK_ReadReg(R11)  returns 0x00000000 (0000ms, 1597ms total)
T0B00 754:702 JLINK_ReadReg(R12)  returns 0x10007DB0 (0000ms, 1597ms total)
T0B00 754:702 JLINK_ReadReg(R13 (SP))  returns 0x10007FD0 (0000ms, 1597ms total)
T0B00 754:702 JLINK_ReadReg(R14)  returns 0x00000F39 (0000ms, 1597ms total)
T0B00 754:702 JLINK_ReadReg(R15 (PC))  returns 0x00001096 (0000ms, 1597ms total)
T0B00 754:702 JLINK_ReadReg(XPSR)  returns 0x81000000 (0000ms, 1597ms total)
T0B00 754:702 JLINK_ReadReg(MSP)  returns 0x10007FD0 (0000ms, 1597ms total)
T0B00 754:702 JLINK_ReadReg(PSP)  returns 0x10000800 (0000ms, 1597ms total)
T0B00 754:703 JLINK_ReadReg(CFBP)  returns 0x00000000 (0000ms, 1598ms total)
T1CB4 754:703 JLINK_ReadMemU32(0xE0001004, 0x0001 Items, ...) -- CPU_ReadMem(4 bytes @ 0xE0001004) -- Data:  B3 31 C8 0A  returns 0x01 (0002ms, 1600ms total)
T1CB4 754:706 JLINK_ReadMem (0x10000006, 0x0002 Bytes, ...) -- CPU_ReadMem(64 bytes @ 0x10000000) -- Updating C cache (64 bytes @ 0x10000000) -- Read from C cache (2 bytes @ 0x10000006) -- Data:  5A 00  returns 0x00 (0002ms, 1602ms total)
T1CB4 754:708 JLINK_ReadMem (0x1000000C, 0x0004 Bytes, ...) -- Read from C cache (4 bytes @ 0x1000000C) -- Data:  00 00 00 00  returns 0x00 (0000ms, 1602ms total)
T1CB4 754:708 JLINK_ReadMem (0x1000002A, 0x0001 Bytes, ...) -- Read from C cache (1 bytes @ 0x1000002A) -- Data:  00  returns 0x00 (0000ms, 1602ms total)
T1CB4 754:708 JLINK_ReadMem (0xE000ED04, 0x0004 Bytes, ...) -- CPU_ReadMem(4 bytes @ 0xE000ED04) -- Data:  00 00 40 00  returns 0x00 (0001ms, 1603ms total)
T1CB4 754:709 JLINK_ReadMem (0xE000ED08, 0x0004 Bytes, ...) -- CPU_ReadMem(4 bytes @ 0xE000ED08) -- Data:  00 00 00 00  returns 0x00 (0002ms, 1605ms total)
T1CB4 754:711 JLINK_ReadMem (0xE000ED0C, 0x0004 Bytes, ...) -- CPU_ReadMem(4 bytes @ 0xE000ED0C) -- Data:  00 02 05 FA  returns 0x00 (0002ms, 1607ms total)
T1CB4 754:713 JLINK_ReadMem (0xE000ED18, 0x0004 Bytes, ...) -- CPU_ReadMem(4 bytes @ 0xE000ED18) -- Data:  00 00 00 00  returns 0x00 (0001ms, 1608ms total)
T1CB4 754:714 JLINK_ReadMem (0xE000ED1C, 0x0004 Bytes, ...) -- CPU_ReadMem(4 bytes @ 0xE000ED1C) -- Data:  00 00 00 00  returns 0x00 (0001ms, 1609ms total)
T1CB4 754:715 JLINK_ReadMem (0xE000ED20, 0x0004 Bytes, ...) -- CPU_ReadMem(4 bytes @ 0xE000ED20) -- Data:  00 00 00 00  returns 0x00 (0001ms, 1610ms total)
T1CB4 754:717 JLINK_ReadMem (0xE000ED24, 0x0004 Bytes, ...) -- CPU_ReadMem(4 bytes @ 0xE000ED24) -- Data:  00 00 00 00  returns 0x00 (0002ms, 1612ms total)
T1CB4 754:719 JLINK_ReadMem (0xE000EDFC, 0x0004 Bytes, ...) -- Data:  00 00 00 01  returns 0x00 (0000ms, 1612ms total)
T1CB4 754:719 JLINK_ReadMem (0xE000E100, 0x0008 Bytes, ...) -- CPU_ReadMem(8 bytes @ 0xE000E100) -- Data:  0E 00 7C 00 00 00 00 00  returns 0x00 (0001ms, 1613ms total)
T1CB4 754:720 JLINK_ReadMem (0xE000E200, 0x0008 Bytes, ...) -- CPU_ReadMem(8 bytes @ 0xE000E200) -- Data:  00 00 01 00 01 00 00 00  returns 0x00 (0002ms, 1615ms total)
T1CB4 754:722 JLINK_ReadMem (0xE000E300, 0x0008 Bytes, ...) -- CPU_ReadMem(8 bytes @ 0xE000E300) -- Data:  00 00 00 00 00 00 00 00  returns 0x00 (0001ms, 1616ms total)
T1CB4 754:723 JLINK_ReadMem (0xE000E400, 0x0040 Bytes, ...) -- CPU_ReadMem(64 bytes @ 0xE000E400) -- Data:  00 08 10 08 00 00 00 00 00 00 00 00 00 00 00 00 ...  returns 0x00 (0003ms, 1619ms total)
T1CB4 857:424 JLINK_ReadMem (0x10000005, 0x0001 Bytes, ...) -- Read from C cache (1 bytes @ 0x10000005) -- Data:  00  returns 0x00 (0001ms, 1620ms total)
T0B00 1034:967 JLINK_ReadMemU32(0xE0001004, 0x0001 Items, ...) -- Data:  B3 31 C8 0A  returns 0x01 (0001ms, 1621ms total)
T0B00 1034:968 JLINK_WriteU32(0xE0001004, 0x0AC833FF) -- CPU_WriteMem(4 bytes @ 0xE0001004)  returns 0x00 (0001ms, 1622ms total)
T0B00 1034:969 JLINK_WriteU32(0xE0001000, 0x0001161F)  returns 0x00 (0000ms, 1622ms total)
T0B00 1034:969 JLINK_WriteU32(0xE0000E80, 0x0001000F)  returns 0x00 (0000ms, 1622ms total)
T0B00 1034:969 JLINK_SWO_Control(JLINKARM_SWO_CMD_GET_NUM_BYTES, ...)  returns 0x00 (0000ms, 1622ms total)
T0B00 1034:970 JLINK_Go() -- CPU_WriteMem(4 bytes @ 0xE0000E80) -- CPU_WriteMem(4 bytes @ 0xE0001000) (0002ms, 1624ms total)
T0B00 1035:074 JLINK_SWO_Read(..., Offset = 0x00, NumBytes = 0x400000) -- Data:  B1 F8 B1 B1 BF B7 F7 F7 F7 E0 F8 B1 B1 BF BF F7 ...  NumBytesRead = 0x141 (0000ms, 1624ms total)
T0B00 1035:076 JLINK_SWO_Control(JLINKARM_SWO_CMD_FLUSH, ...)  returns 0x00 (0000ms, 1624ms total)
T0B00 1035:076 JLINK_IsHalted()  returns FALSE (0001ms, 1625ms total)
T0B00 1035:178 JLINK_SWO_Read(..., Offset = 0x00, NumBytes = 0x400000) -- Data:  F7 F8 F7 E0 B1 BF B7 BF F7 F7 F8 E0 B1 B1 B1 BF ...  NumBytesRead = 0x157 (0000ms, 1624ms total)
T0B00 1035:180 JLINK_SWO_Control(JLINKARM_SWO_CMD_FLUSH, ...)  returns 0x00 (0000ms, 1624ms total)
T0B00 1035:180 JLINK_IsHalted()  returns FALSE (0002ms, 1626ms total)
T0B00 1035:283 JLINK_SWO_Read(..., Offset = 0x00, NumBytes = 0x400000) -- Data:  BF BF E0 F7 F7 F7 F8 B1 BF E8 BF F7 B7 F7 F7 F8 ...  NumBytesRead = 0x154 (0000ms, 1624ms total)
T0B00 1035:285 JLINK_SWO_Control(JLINKARM_SWO_CMD_FLUSH, ...)  returns 0x00 (0000ms, 1624ms total)
T0B00 1035:285 JLINK_IsHalted()  returns FALSE (0001ms, 1625ms total)
T0B00 1035:387 JLINK_SWO_Read(..., Offset = 0x00, NumBytes = 0x400000) -- Data:  B1 B1 BF F7 F7 F7 E0 F8 B1 B1 BF F7 F7 F7 F7 F8 ...  NumBytesRead = 0x14E (0000ms, 1624ms total)
T0B00 1035:389 JLINK_SWO_Control(JLINKARM_SWO_CMD_FLUSH, ...)  returns 0x00 (0000ms, 1624ms total)
T0B00 1035:389 JLINK_IsHalted()  returns FALSE (0001ms, 1625ms total)
T0B00 1035:491 JLINK_SWO_Read(..., Offset = 0x00, NumBytes = 0x400000) -- Data:  B7 F7 E0 F7 F7 F8 B1 B1 B1 BF E8 B7 F7 F7 F8 B1 ...  NumBytesRead = 0x14C (0000ms, 1624ms total)
T0B00 1035:493 JLINK_SWO_Control(JLINKARM_SWO_CMD_FLUSH, ...)  returns 0x00 (0000ms, 1624ms total)
T0B00 1035:493 JLINK_ReadMemU32(0xE0001004, 0x0001 Items, ...) -- CPU is running -- CPU_ReadMem(4 bytes @ 0xE0001004) -- Data:  DF 64 E2 0D  returns 0x01 (0001ms, 1625ms total)
T1CB4 1035:494 JLINK_ReadMem (0x10000006, 0x0002 Bytes, ...) -- CPU is running -- CPU_ReadMem(2 bytes @ 0x10000006) -- Data:  5A 00  returns 0x00 (0001ms, 1626ms total)
T1CB4 1035:495 JLINK_ReadMem (0x1000000C, 0x0004 Bytes, ...) -- CPU is running -- CPU_ReadMem(4 bytes @ 0x1000000C) -- Data:  00 00 00 00  returns 0x00 (0001ms, 1627ms total)
T1CB4 1035:496 JLINK_ReadMem (0x1000002A, 0x0001 Bytes, ...) -- CPU is running -- CPU_ReadMem(1 bytes @ 0x1000002A) -- Data:  00  returns 0x00 (0001ms, 1628ms total)
T1CB4 1035:497 JLINK_ReadMem (0x1000002A, 0x0001 Bytes, ...) -- CPU is running -- CPU_ReadMem(1 bytes @ 0x1000002A) -- Data:  00  returns 0x00 (0002ms, 1630ms total)
T0B00 1035:501 JLINK_IsHalted()  returns FALSE (0001ms, 1631ms total)
T0B00 1035:603 JLINK_SWO_Read(..., Offset = 0x00, NumBytes = 0x400000) -- Data:  B7 F7 E0 F7 F8 B1 B1 BF BF F7 F7 F8 F8 E0 B1 BF ...  NumBytesRead = 0x170 (0000ms, 1630ms total)
T0B00 1035:605 JLINK_SWO_Control(JLINKARM_SWO_CMD_FLUSH, ...)  returns 0x00 (0000ms, 1630ms total)
T0B00 1035:605 JLINK_IsHalted()  returns FALSE (0001ms, 1631ms total)
T0B00 1035:706 JLINK_SWO_Read(..., Offset = 0x00, NumBytes = 0x400000) -- Data:  F8 B1 B1 BF BF F7 F7 F8 E0 F8 B1 B1 BF E0 B7 E8 ...  NumBytesRead = 0x155 (0000ms, 1630ms total)
T0B00 1035:708 JLINK_SWO_Control(JLINKARM_SWO_CMD_FLUSH, ...)  returns 0x00 (0000ms, 1630ms total)
T0B00 1035:708 JLINK_IsHalted()  returns FALSE (0002ms, 1632ms total)
T0B00 1035:811 JLINK_SWO_Read(..., Offset = 0x00, NumBytes = 0x400000) -- Data:  F7 F7 F7 F8 E0 B1 B1 BF F7 E8 F7 F7 F7 F8 B1 B1 ...  NumBytesRead = 0x15D (0000ms, 1630ms total)
T0B00 1035:813 JLINK_SWO_Control(JLINKARM_SWO_CMD_FLUSH, ...)  returns 0x00 (0000ms, 1630ms total)
T0B00 1035:813 JLINK_IsHalted()  returns FALSE (0002ms, 1632ms total)
T0B00 1035:915 JLINK_Halt()  returns 0x00 (0005ms, 1635ms total)
T0B00 1035:921 JLINK_IsHalted()  returns TRUE (0000ms, 1635ms total)
T0B00 1035:921 JLINK_IsHalted()  returns TRUE (0000ms, 1635ms total)
T0B00 1035:921 JLINK_IsHalted()  returns TRUE (0000ms, 1635ms total)
T0B00 1035:921 JLINK_ReadReg(R15 (PC))  returns 0x00001096 (0001ms, 1636ms total)
T0B00 1035:922 JLINK_ReadReg(XPSR)  returns 0x81000000 (0000ms, 1636ms total)
T0B00 1035:922 JLINK_SWO_Read(..., Offset = 0x00, NumBytes = 0x400000) -- Data:  F3 B1 B1 BF E8 BF F7 F7 F7 B1 B1 BF F7 F7 F8 F7 ...  NumBytesRead = 0x153 (0000ms, 1636ms total)
T0B00 1035:924 JLINK_SWO_Control(JLINKARM_SWO_CMD_FLUSH, ...)  returns 0x00 (0000ms, 1636ms total)
